
T4C98 000:611 SEGGER J-Link V4.90 Log File (0000ms, 0267ms total)
T4C98 000:611 DLL Compiled: Jul 28 2014 10:35:20 (0000ms, 0267ms total)
T4C98 000:611 Logging started @ 2018-11-08 19:04 (0000ms, 0267ms total)
T4C98 000:611 JLINK_SetWarnOutHandler(...) (0000ms, 0267ms total)
T4C98 000:611 JLINK_OpenEx(...)
Firmware: J-Link V9 compiled Dec 16 2016 15:34:10
Hardware: V9.20
Feature(s): RDI, GDB, FlashDL, FlashBP, JFlash  returns O.K. (0269ms, 0536ms total)
T4C98 000:880 JLINK_SetErrorOutHandler(...) (0000ms, 0536ms total)
T4C98 000:880 JLINK_ExecCommand("ProjectFile = "D:\RMDownload\2018分区赛\步兵\version2_5_2\infantry\USER\JLinkSettings.ini"", ...)  returns 0x00 (0002ms, 0538ms total)
T4C98 000:901 JLINK_ExecCommand("Device = STM32F427II", ...)Device "STM32F427II" selected (2048 KB flash, 192 KB RAM).  returns 0x00 (0043ms, 0581ms total)
T4C98 000:944 JLINK_ExecCommand("DisableConnectionTimeout", ...)  returns 0x01 (0000ms, 0581ms total)
T4C98 000:944 JLINK_GetHardwareVersion()  returns 0x16760 (0000ms, 0581ms total)
T4C98 000:944 JLINK_GetDLLVersion()  returns 49000 (0000ms, 0581ms total)
T4C98 000:944 JLINK_GetFirmwareString(...) (0000ms, 0581ms total)
T4C98 001:067 JLINK_GetDLLVersion()  returns 49000 (0000ms, 0581ms total)
T4C98 001:067 JLINK_GetCompileDateTime() (0000ms, 0581ms total)
T4C98 001:087 JLINK_GetFirmwareString(...) (0000ms, 0581ms total)
T4C98 001:096 JLINK_GetHardwareVersion()  returns 0x16760 (0000ms, 0581ms total)
T4C98 001:124 JLINK_TIF_Select(JLINKARM_TIF_SWD)  returns 0x00 (0001ms, 0582ms total)
T4C98 001:125 JLINK_SetSpeed(1000) (0001ms, 0583ms total)
T4C98 001:126 JLINK_GetId() >0x108 TIF>Found SWD-DP with ID 0x2BA01477 >0x0D TIF> >0x28 TIF> >0x0D TIF> >0x28 TIF> >0x0D TIF> >0x21 TIF> >0x0D TIF> >0x28 TIF> >0x0D TIF> >0x28 TIF> >0x0D TIF> >0x28 TIF> >0x0D TIF> >0x21 TIF> >0x0D TIF> >0x21 TIF> >0x0D TIF> >0x28 TIF> >0x0D TIF> >0x21 TIF> >0x0D TIF> >0x21 TIF> >0x0D TIF> >0x28 TIF> >0x0D TIF> >0x21 TIF> >0x0D TIF> >0x21 TIF> >0x108 TIF>Found SWD-DP with ID 0x2BA01477 >0x0D TIF> >0x21 TIF> >0x0D TIF> >0x28 TIF> >0x0D TIF> >0x28 TIF> >0x0D TIF> >0x21 TIF>
 >0x0D TIF> >0x28 TIF> >0x0D TIF> >0x21 TIF> >0x0D TIF> >0x21 TIF> >0x0D TIF> >0x21 TIF> >0x0D TIF> >0x21 TIF> >0x0D TIF> >0x28 TIF> >0x0D TIF> >0x28 TIF> >0x0D TIF> >0x21 TIF> >0x0D TIF> >0x28 TIF> >0x0D TIF> >0x28 TIF> >0x0D TIF> >0x28 TIF> >0x0D TIF> >0x21 TIF> >0x0D TIF> >0x21 TIF> >0x0D TIF> >0x28 TIF> >0x0D TIF> >0x21 TIF> >0x0D TIF> >0x21 TIF>Found Cortex-M4 r0p1, Little endian. -- CPU_WriteMem(4 bytes @ 0xE0002000) -- CPU_ReadMem(4 bytes @ 0xE000EDF0) -- CPU_ReadMem(4 bytes @ 0xE0002000)
FPUnit: 6 code (BP) slots and 2 literal slots -- CPU_ReadMem(4 bytes @ 0xE000EDFC) -- CPU_ReadMem(4 bytes @ 0xE0001000) -- CPU_WriteMem(4 bytes @ 0xE0001000) -- CPU_ReadMem(4 bytes @ 0xE00FF010)TPIU fitted. -- CPU_ReadMem(4 bytes @ 0xE00FF014)ETM fitted. -- CPU_ReadMem(4 bytes @ 0xE00FF018) >0x0D TIF> >0x21 TIF>  returns 0x2BA01477 (0164ms, 0747ms total)
T4C98 001:290 JLINK_GetDLLVersion()  returns 49000 (0000ms, 0747ms total)
T4C98 001:290 JLINK_CORE_GetFound()  returns 0xE0000FF (0000ms, 0747ms total)
T4C98 001:306 JLINK_ReadMem (0xE00FF000, 0x0020 Bytes, ...) -- CPU is running -- CPU_ReadMem(32 bytes @ 0xE00FF000) - Data: 03 F0 F0 FF 03 20 F0 FF 03 30 F0 FF 03 10 F0 FF ...  returns 0x00 (0002ms, 0749ms total)
T4C98 001:308 JLINK_ReadMem (0xE000EFF0, 0x0010 Bytes, ...) -- CPU is running -- CPU_ReadMem(16 bytes @ 0xE000EFF0) - Data: 0D 00 00 00 E0 00 00 00 05 00 00 00 B1 00 00 00  returns 0x00 (0001ms, 0750ms total)
T4C98 001:309 JLINK_ReadMem (0xE000EFD0, 0x0020 Bytes, ...) -- CPU is running -- CPU_ReadMem(32 bytes @ 0xE000EFD0) - Data: 04 00 00 00 00 00 00 00 00 00 00 00 00 00 00 00 ...  returns 0x00 (0002ms, 0752ms total)
T4C98 001:311 JLINK_ReadMem (0xE0001FF0, 0x0010 Bytes, ...) -- CPU is running -- CPU_ReadMem(16 bytes @ 0xE0001FF0) - Data: 0D 00 00 00 E0 00 00 00 05 00 00 00 B1 00 00 00  returns 0x00 (0001ms, 0753ms total)
T4C98 001:312 JLINK_ReadMem (0xE0001FD0, 0x0020 Bytes, ...) -- CPU is running -- CPU_ReadMem(32 bytes @ 0xE0001FD0) - Data: 04 00 00 00 00 00 00 00 00 00 00 00 00 00 00 00 ...  returns 0x00 (0002ms, 0755ms total)
T4C98 001:314 JLINK_ReadMem (0xE0002FF0, 0x0010 Bytes, ...) -- CPU is running -- CPU_ReadMem(16 bytes @ 0xE0002FF0) - Data: 0D 00 00 00 E0 00 00 00 05 00 00 00 B1 00 00 00  returns 0x00 (0001ms, 0756ms total)
T4C98 001:315 JLINK_ReadMem (0xE0002FD0, 0x0020 Bytes, ...) -- CPU is running -- CPU_ReadMem(32 bytes @ 0xE0002FD0) - Data: 04 00 00 00 00 00 00 00 00 00 00 00 00 00 00 00 ...  returns 0x00 (0001ms, 0757ms total)
T4C98 001:316 JLINK_ReadMem (0xE0000FF0, 0x0010 Bytes, ...) -- CPU is running -- CPU_ReadMem(16 bytes @ 0xE0000FF0) - Data: 0D 00 00 00 E0 00 00 00 05 00 00 00 B1 00 00 00  returns 0x00 (0002ms, 0759ms total)
T4C98 001:318 JLINK_ReadMem (0xE0000FD0, 0x0020 Bytes, ...) -- CPU is running -- CPU_ReadMem(32 bytes @ 0xE0000FD0) - Data: 04 00 00 00 00 00 00 00 00 00 00 00 00 00 00 00 ...  returns 0x00 (0001ms, 0760ms total)
T4C98 001:319 JLINK_ReadMem (0xE0040FF0, 0x0010 Bytes, ...) -- CPU is running -- CPU_ReadMem(16 bytes @ 0xE0040FF0) - Data: 0D 00 00 00 90 00 00 00 05 00 00 00 B1 00 00 00  returns 0x00 (0001ms, 0761ms total)
T4C98 001:320 JLINK_ReadMem (0xE0040FD0, 0x0020 Bytes, ...) -- CPU is running -- CPU_ReadMem(32 bytes @ 0xE0040FD0) - Data: 04 00 00 00 00 00 00 00 00 00 00 00 00 00 00 00 ...  returns 0x00 (0002ms, 0763ms total)
T4C98 001:322 JLINK_ReadMem (0xE0041FF0, 0x0010 Bytes, ...) -- CPU is running -- CPU_ReadMem(16 bytes @ 0xE0041FF0) - Data: 0D 00 00 00 90 00 00 00 05 00 00 00 B1 00 00 00  returns 0x00 (0001ms, 0764ms total)
T4C98 001:323 JLINK_ReadMem (0xE0041FD0, 0x0020 Bytes, ...) -- CPU is running -- CPU_ReadMem(32 bytes @ 0xE0041FD0) - Data: 04 00 00 00 00 00 00 00 00 00 00 00 00 00 00 00 ...  returns 0x00 (0002ms, 0766ms total)
T4C98 001:325 JLINK_ReadMemU32(0xE000EF40, 0x0001 Items, ...) -- CPU is running -- CPU_ReadMem(4 bytes @ 0xE000EF40) - Data: 21 00 11 10  returns 0x01 (0001ms, 0767ms total)
T4C98 001:326 JLINK_ReadMemU32(0xE000EF44, 0x0001 Items, ...) -- CPU is running -- CPU_ReadMem(4 bytes @ 0xE000EF44) - Data: 11 00 00 11  returns 0x01 (0001ms, 0768ms total)
T4C98 001:327 JLINK_ReadMemU32(0xE000ED00, 0x0001 Items, ...) -- CPU is running -- CPU_ReadMem(4 bytes @ 0xE000ED00) - Data: 41 C2 0F 41  returns 0x01 (0001ms, 0769ms total)
T4C98 001:328 JLINK_SetResetType(JLINKARM_RESET_TYPE_NORMAL)  returns JLINKARM_RESET_TYPE_NORMAL (0000ms, 0769ms total)
T4C98 001:328 JLINK_Reset() -- CPU is running -- CPU_WriteMem(4 bytes @ 0xE000EDF0) -- CPU is running -- CPU_WriteMem(4 bytes @ 0xE000EDFC) >0x35 TIF> -- CPU is running -- CPU_WriteMem(4 bytes @ 0xE000ED0C) -- CPU is running -- CPU_ReadMem(4 bytes @ 0xE000EDF0) -- CPU is running -- CPU_ReadMem(4 bytes @ 0xE000EDF0) -- CPU is running -- CPU_WriteMem(4 bytes @ 0xE000EDF0) -- CPU is running -- CPU_WriteMem(4 bytes @ 0xE000EDFC) -- CPU is running -- CPU_ReadMem(4 bytes @ 0xE000EDF0)
 -- CPU_WriteMem(4 bytes @ 0xE0002000) -- CPU_ReadMem(4 bytes @ 0xE000EDFC) -- CPU_ReadMem(4 bytes @ 0xE0001000) (0029ms, 0798ms total)
T4C98 001:357 JLINK_Halt()  returns 0x00 (0000ms, 0798ms total)
T4C98 001:357 JLINK_IsHalted()  returns TRUE (0000ms, 0798ms total)
T4C98 001:357 JLINK_ReadMemU32(0xE000EDF0, 0x0001 Items, ...) -- CPU_ReadMem(4 bytes @ 0xE000EDF0) - Data: 03 00 03 00  returns 0x01 (0001ms, 0799ms total)
T4C98 001:358 JLINK_WriteU32(0xE000EDF0, 0xA05F0003) -- CPU_WriteMem(4 bytes @ 0xE000EDF0)  returns 0x00 (0001ms, 0800ms total)
T4C98 001:360 JLINK_WriteU32(0xE000EDFC, 0x01000000) -- CPU_WriteMem(4 bytes @ 0xE000EDFC)  returns 0x00 (0001ms, 0802ms total)
T4C98 001:428 JLINK_GetHWStatus(...)  returns 0x00 (0001ms, 0803ms total)
T4C98 001:473 JLINK_GetNumBPUnits(Type = 0xFFFFFF00)  returns 0x06 (0000ms, 0803ms total)
T4C98 001:473 JLINK_GetNumBPUnits(Type = 0xF0)  returns 0x2000 (0000ms, 0803ms total)
T4C98 001:473 JLINK_GetNumWPUnits()  returns 0x04 (0000ms, 0803ms total)
T4C98 001:509 JLINK_GetSpeed()  returns 0x3E8 (0000ms, 0803ms total)
T4C98 001:539 JLINK_ReadMemU32(0xE000E004, 0x0001 Items, ...) -- CPU_ReadMem(4 bytes @ 0xE000E004) - Data: 02 00 00 00  returns 0x01 (0001ms, 0804ms total)
T4C98 001:540 JLINK_ReadMemU32(0xE000E004, 0x0001 Items, ...) -- CPU_ReadMem(4 bytes @ 0xE000E004) - Data: 02 00 00 00  returns 0x01 (0002ms, 0806ms total)
T4C98 001:542 JLINK_WriteMem(0xE0001000, 0x001C Bytes, ...) - Data: 01 00 00 00 00 00 00 00 00 00 00 00 00 00 00 00 ... -- CPU_WriteMem(28 bytes @ 0xE0001000)  returns 0x1C (0001ms, 0807ms total)
T4C98 001:543 JLINK_ReadMem (0xE0001000, 0x001C Bytes, ...) -- CPU_ReadMem(28 bytes @ 0xE0001000) - Data: 01 00 00 40 00 00 00 00 00 00 00 00 00 00 00 00 ...  returns 0x00 (0002ms, 0809ms total)
T4C98 001:545 JLINK_Halt()  returns 0x00 (0000ms, 0809ms total)
T4C98 001:545 JLINK_IsHalted()  returns TRUE (0000ms, 0809ms total)
T4C98 001:554 JLINK_WriteMem(0x20000000, 0x0198 Bytes, ...) - Data: 00 BE 0A E0 0D 78 2D 06 68 40 08 24 40 00 00 D3 ... -- CPU_WriteMem(408 bytes @ 0x20000000)  returns 0x198 (0006ms, 0815ms total)
T4C98 001:560 JLINK_WriteReg(R0, 0x08000000)  returns 0x00 (0000ms, 0815ms total)
T4C98 001:560 JLINK_WriteReg(R1, 0x00B71B00)  returns 0x00 (0000ms, 0815ms total)
T4C98 001:560 JLINK_WriteReg(R2, 0x00000001)  returns 0x00 (0000ms, 0815ms total)
T4C98 001:560 JLINK_WriteReg(R3, 0x00000000)  returns 0x00 (0000ms, 0815ms total)
T4C98 001:560 JLINK_WriteReg(R4, 0x00000000)  returns 0x00 (0000ms, 0815ms total)
T4C98 001:560 JLINK_WriteReg(R5, 0x00000000)  returns 0x00 (0000ms, 0815ms total)
T4C98 001:560 JLINK_WriteReg(R6, 0x00000000)  returns 0x00 (0000ms, 0815ms total)
T4C98 001:560 JLINK_WriteReg(R7, 0x00000000)  returns 0x00 (0000ms, 0815ms total)
T4C98 001:560 JLINK_WriteReg(R8, 0x00000000)  returns 0x00 (0000ms, 0815ms total)
T4C98 001:560 JLINK_WriteReg(R9, 0x20000194)  returns 0x00 (0000ms, 0815ms total)
T4C98 001:560 JLINK_WriteReg(R10, 0x00000000)  returns 0x00 (0000ms, 0815ms total)
T4C98 001:560 JLINK_WriteReg(R11, 0x00000000)  returns 0x00 (0000ms, 0815ms total)
T4C98 001:561 JLINK_WriteReg(R12, 0x00000000)  returns 0x00 (0000ms, 0815ms total)
T4C98 001:561 JLINK_WriteReg(R13 (SP), 0x20001000)  returns 0x00 (0000ms, 0815ms total)
T4C98 001:561 JLINK_WriteReg(R14, 0x20000001)  returns 0x00 (0000ms, 0815ms total)
T4C98 001:561 JLINK_WriteReg(R15 (PC), 0x2000005E)  returns 0x00 (0000ms, 0815ms total)
T4C98 001:561 JLINK_WriteReg(XPSR, 0x01000000)  returns 0x00 (0000ms, 0815ms total)
T4C98 001:561 JLINK_WriteReg(MSP, 0x20001000)  returns 0x00 (0000ms, 0815ms total)
T4C98 001:561 JLINK_WriteReg(PSP, 0x20001000)  returns 0x00 (0000ms, 0815ms total)
T4C98 001:561 JLINK_WriteReg(CFBP, 0x00000000)  returns 0x00 (0000ms, 0815ms total)
T4C98 001:561 JLINK_SetBPEx(Addr = 0x20000000, Type = 0xFFFFFFF2) -- CPU_ReadMem(2 bytes @ 0x20000000)  returns 0x00000001 (0001ms, 0816ms total)
T4C98 001:562 JLINK_Go() -- CPU_WriteMem(2 bytes @ 0x20000000) -- CPU_WriteMem(4 bytes @ 0xE0002008) -- CPU_WriteMem(4 bytes @ 0xE000200C) -- CPU_WriteMem(4 bytes @ 0xE0002010) -- CPU_WriteMem(4 bytes @ 0xE0002014) -- CPU_WriteMem(4 bytes @ 0xE0002018) -- CPU_WriteMem(4 bytes @ 0xE000201C) -- CPU_WriteMem(4 bytes @ 0xE0001004) (0013ms, 0829ms total)
T4C98 001:575 JLINK_IsHalted() -- CPU_ReadMem(2 bytes @ 0x20000000)  returns TRUE (0007ms, 0836ms total)
T4C98 001:582 JLINK_ReadReg(R15 (PC))  returns 0x20000000 (0000ms, 0829ms total)
T4C98 001:582 JLINK_ClrBPEx(BPHandle = 0x00000001)  returns 0x00 (0000ms, 0829ms total)
T4C98 001:582 JLINK_ReadReg(R0)  returns 0x00000000 (0000ms, 0829ms total)
T4C98 001:583 JLINK_WriteReg(R0, 0x08000000)  returns 0x00 (0000ms, 0829ms total)
T4C98 001:583 JLINK_WriteReg(R1, 0x00004000)  returns 0x00 (0000ms, 0829ms total)
T4C98 001:583 JLINK_WriteReg(R2, 0x000000FF)  returns 0x00 (0000ms, 0829ms total)
T4C98 001:583 JLINK_WriteReg(R3, 0x00000000)  returns 0x00 (0000ms, 0829ms total)
T4C98 001:583 JLINK_WriteReg(R4, 0x00000000)  returns 0x00 (0000ms, 0829ms total)
T4C98 001:583 JLINK_WriteReg(R5, 0x00000000)  returns 0x00 (0000ms, 0829ms total)
T4C98 001:583 JLINK_WriteReg(R6, 0x00000000)  returns 0x00 (0001ms, 0830ms total)
T4C98 001:584 JLINK_WriteReg(R7, 0x00000000)  returns 0x00 (0000ms, 0830ms total)
T4C98 001:584 JLINK_WriteReg(R8, 0x00000000)  returns 0x00 (0000ms, 0830ms total)
T4C98 001:584 JLINK_WriteReg(R9, 0x20000194)  returns 0x00 (0000ms, 0830ms total)
T4C98 001:584 JLINK_WriteReg(R10, 0x00000000)  returns 0x00 (0000ms, 0830ms total)
T4C98 001:584 JLINK_WriteReg(R11, 0x00000000)  returns 0x00 (0000ms, 0830ms total)
T4C98 001:584 JLINK_WriteReg(R12, 0x00000000)  returns 0x00 (0000ms, 0830ms total)
T4C98 001:584 JLINK_WriteReg(R13 (SP), 0x20001000)  returns 0x00 (0000ms, 0830ms total)
T4C98 001:584 JLINK_WriteReg(R14, 0x20000001)  returns 0x00 (0000ms, 0830ms total)
T4C98 001:584 JLINK_WriteReg(R15 (PC), 0x20000020)  returns 0x00 (0000ms, 0830ms total)
T4C98 001:584 JLINK_WriteReg(XPSR, 0x01000000)  returns 0x00 (0000ms, 0830ms total)
T4C98 001:584 JLINK_WriteReg(MSP, 0x20001000)  returns 0x00 (0000ms, 0830ms total)
T4C98 001:584 JLINK_WriteReg(PSP, 0x20001000)  returns 0x00 (0000ms, 0830ms total)
T4C98 001:584 JLINK_WriteReg(CFBP, 0x00000000)  returns 0x00 (0001ms, 0831ms total)
T4C98 001:585 JLINK_SetBPEx(Addr = 0x20000000, Type = 0xFFFFFFF2)  returns 0x00000002 (0000ms, 0831ms total)
T4C98 001:585 JLINK_Go() (0004ms, 0835ms total)
T4C98 001:589 JLINK_IsHalted() -- CPU_ReadMem(2 bytes @ 0x20000000)  returns TRUE (0007ms, 0842ms total)
T4C98 001:596 JLINK_ReadReg(R15 (PC))  returns 0x20000000 (0000ms, 0835ms total)
T4C98 001:596 JLINK_ClrBPEx(BPHandle = 0x00000002)  returns 0x00 (0000ms, 0835ms total)
T4C98 001:596 JLINK_ReadReg(R0)  returns 0x00000001 (0000ms, 0835ms total)
T4C98 001:596 JLINK_WriteReg(R0, 0x08000000)  returns 0x00 (0001ms, 0836ms total)
T4C98 001:597 JLINK_WriteReg(R1, 0x00004000)  returns 0x00 (0000ms, 0836ms total)
T4C98 001:597 JLINK_WriteReg(R2, 0x000000FF)  returns 0x00 (0000ms, 0836ms total)
T4C98 001:597 JLINK_WriteReg(R3, 0x00000000)  returns 0x00 (0000ms, 0836ms total)
T4C98 001:597 JLINK_WriteReg(R4, 0x00000000)  returns 0x00 (0000ms, 0836ms total)
T4C98 001:597 JLINK_WriteReg(R5, 0x00000000)  returns 0x00 (0000ms, 0836ms total)
T4C98 001:597 JLINK_WriteReg(R6, 0x00000000)  returns 0x00 (0000ms, 0836ms total)
T4C98 001:597 JLINK_WriteReg(R7, 0x00000000)  returns 0x00 (0000ms, 0836ms total)
T4C98 001:597 JLINK_WriteReg(R8, 0x00000000)  returns 0x00 (0000ms, 0836ms total)
T4C98 001:598 JLINK_WriteReg(R9, 0x20000194)  returns 0x00 (0000ms, 0837ms total)
T4C98 001:598 JLINK_WriteReg(R10, 0x00000000)  returns 0x00 (0000ms, 0837ms total)
T4C98 001:598 JLINK_WriteReg(R11, 0x00000000)  returns 0x00 (0000ms, 0837ms total)
T4C98 001:598 JLINK_WriteReg(R12, 0x00000000)  returns 0x00 (0000ms, 0837ms total)
T4C98 001:598 JLINK_WriteReg(R13 (SP), 0x20001000)  returns 0x00 (0000ms, 0837ms total)
T4C98 001:598 JLINK_WriteReg(R14, 0x20000001)  returns 0x00 (0000ms, 0837ms total)
T4C98 001:598 JLINK_WriteReg(R15 (PC), 0x200000D4)  returns 0x00 (0000ms, 0837ms total)
T4C98 001:598 JLINK_WriteReg(XPSR, 0x01000000)  returns 0x00 (0000ms, 0837ms total)
T4C98 001:598 JLINK_WriteReg(MSP, 0x20001000)  returns 0x00 (0000ms, 0837ms total)
T4C98 001:598 JLINK_WriteReg(PSP, 0x20001000)  returns 0x00 (0000ms, 0837ms total)
T4C98 001:598 JLINK_WriteReg(CFBP, 0x00000000)  returns 0x00 (0000ms, 0837ms total)
T4C98 001:598 JLINK_SetBPEx(Addr = 0x20000000, Type = 0xFFFFFFF2)  returns 0x00000003 (0000ms, 0837ms total)
T4C98 001:598 JLINK_Go() (0004ms, 0841ms total)
T4C98 001:602 JLINK_IsHalted()  returns FALSE (0001ms, 0842ms total)
T4C98 001:867 JLINK_IsHalted()  returns FALSE (0000ms, 0841ms total)
T4C98 001:870 JLINK_IsHalted()  returns FALSE (0000ms, 0841ms total)
T4C98 001:873 JLINK_IsHalted()  returns FALSE (0001ms, 0842ms total)
T4C98 001:876 JLINK_IsHalted()  returns FALSE (0001ms, 0842ms total)
T4C98 001:878 JLINK_IsHalted()  returns FALSE (0002ms, 0843ms total)
T4C98 001:881 JLINK_IsHalted()  returns FALSE (0001ms, 0842ms total)
T4C98 001:884 JLINK_IsHalted()  returns FALSE (0001ms, 0842ms total)
T4C98 001:887 JLINK_IsHalted()  returns FALSE (0000ms, 0842ms total)
T4C98 001:890 JLINK_IsHalted()  returns FALSE (0000ms, 0842ms total)
T4C98 001:892 JLINK_IsHalted()  returns FALSE (0001ms, 0843ms total)
T4C98 001:938 JLINK_IsHalted()  returns FALSE (0001ms, 0843ms total)
T4C98 001:941 JLINK_IsHalted()  returns FALSE (0001ms, 0843ms total)
T4C98 001:944 JLINK_IsHalted()  returns FALSE (0000ms, 0842ms total)
T4C98 001:947 JLINK_IsHalted()  returns FALSE (0001ms, 0843ms total)
T4C98 001:950 JLINK_IsHalted()  returns FALSE (0001ms, 0843ms total)
T4C98 001:953 JLINK_IsHalted()  returns FALSE (0001ms, 0843ms total)
T4C98 001:956 JLINK_IsHalted()  returns FALSE (0001ms, 0843ms total)
T4C98 001:959 JLINK_IsHalted()  returns FALSE (0001ms, 0843ms total)
T4C98 001:963 JLINK_IsHalted()  returns FALSE (0004ms, 0846ms total)
T4C98 001:969 JLINK_IsHalted()  returns FALSE (0001ms, 0843ms total)
T4C98 001:972 JLINK_IsHalted() -- CPU_ReadMem(2 bytes @ 0x20000000)  returns TRUE (0008ms, 0850ms total)
T4C98 001:980 JLINK_ReadReg(R15 (PC))  returns 0x20000000 (0000ms, 0842ms total)
T4C98 001:980 JLINK_ClrBPEx(BPHandle = 0x00000003)  returns 0x00 (0000ms, 0842ms total)
T4C98 001:980 JLINK_ReadReg(R0)  returns 0x00000000 (0000ms, 0842ms total)
T4C98 001:983 JLINK_WriteReg(R0, 0x08004000)  returns 0x00 (0000ms, 0842ms total)
T4C98 001:983 JLINK_WriteReg(R1, 0x00004000)  returns 0x00 (0000ms, 0842ms total)
T4C98 001:983 JLINK_WriteReg(R2, 0x000000FF)  returns 0x00 (0000ms, 0842ms total)
T4C98 001:983 JLINK_WriteReg(R3, 0x00000000)  returns 0x00 (0000ms, 0842ms total)
T4C98 001:983 JLINK_WriteReg(R4, 0x00000000)  returns 0x00 (0000ms, 0842ms total)
T4C98 001:983 JLINK_WriteReg(R5, 0x00000000)  returns 0x00 (0000ms, 0842ms total)
T4C98 001:983 JLINK_WriteReg(R6, 0x00000000)  returns 0x00 (0000ms, 0842ms total)
T4C98 001:983 JLINK_WriteReg(R7, 0x00000000)  returns 0x00 (0000ms, 0842ms total)
T4C98 001:983 JLINK_WriteReg(R8, 0x00000000)  returns 0x00 (0000ms, 0842ms total)
T4C98 001:983 JLINK_WriteReg(R9, 0x20000194)  returns 0x00 (0000ms, 0842ms total)
T4C98 001:983 JLINK_WriteReg(R10, 0x00000000)  returns 0x00 (0000ms, 0842ms total)
T4C98 001:983 JLINK_WriteReg(R11, 0x00000000)  returns 0x00 (0000ms, 0842ms total)
T4C98 001:983 JLINK_WriteReg(R12, 0x00000000)  returns 0x00 (0000ms, 0842ms total)
T4C98 001:983 JLINK_WriteReg(R13 (SP), 0x20001000)  returns 0x00 (0000ms, 0842ms total)
T4C98 001:983 JLINK_WriteReg(R14, 0x20000001)  returns 0x00 (0000ms, 0842ms total)
T4C98 001:983 JLINK_WriteReg(R15 (PC), 0x20000020)  returns 0x00 (0000ms, 0842ms total)
T4C98 001:983 JLINK_WriteReg(XPSR, 0x01000000)  returns 0x00 (0001ms, 0843ms total)
T4C98 001:984 JLINK_WriteReg(MSP, 0x20001000)  returns 0x00 (0000ms, 0843ms total)
T4C98 001:984 JLINK_WriteReg(PSP, 0x20001000)  returns 0x00 (0000ms, 0843ms total)
T4C98 001:984 JLINK_WriteReg(CFBP, 0x00000000)  returns 0x00 (0000ms, 0843ms total)
T4C98 001:984 JLINK_SetBPEx(Addr = 0x20000000, Type = 0xFFFFFFF2)  returns 0x00000004 (0000ms, 0843ms total)
T4C98 001:984 JLINK_Go() (0004ms, 0847ms total)
T4C98 001:988 JLINK_IsHalted() -- CPU_ReadMem(2 bytes @ 0x20000000)  returns TRUE (0008ms, 0855ms total)
T4C98 001:996 JLINK_ReadReg(R15 (PC))  returns 0x20000000 (0000ms, 0847ms total)
T4C98 001:996 JLINK_ClrBPEx(BPHandle = 0x00000004)  returns 0x00 (0000ms, 0847ms total)
T4C98 001:996 JLINK_ReadReg(R0)  returns 0x00000001 (0000ms, 0847ms total)
T4C98 001:996 JLINK_WriteReg(R0, 0x08004000)  returns 0x00 (0000ms, 0847ms total)
T4C98 001:996 JLINK_WriteReg(R1, 0x00004000)  returns 0x00 (0000ms, 0847ms total)
T4C98 001:996 JLINK_WriteReg(R2, 0x000000FF)  returns 0x00 (0000ms, 0847ms total)
T4C98 001:996 JLINK_WriteReg(R3, 0x00000000)  returns 0x00 (0000ms, 0847ms total)
T4C98 001:996 JLINK_WriteReg(R4, 0x00000000)  returns 0x00 (0000ms, 0847ms total)
T4C98 001:996 JLINK_WriteReg(R5, 0x00000000)  returns 0x00 (0000ms, 0847ms total)
T4C98 001:996 JLINK_WriteReg(R6, 0x00000000)  returns 0x00 (0001ms, 0848ms total)
T4C98 001:997 JLINK_WriteReg(R7, 0x00000000)  returns 0x00 (0000ms, 0848ms total)
T4C98 001:997 JLINK_WriteReg(R8, 0x00000000)  returns 0x00 (0000ms, 0848ms total)
T4C98 001:997 JLINK_WriteReg(R9, 0x20000194)  returns 0x00 (0000ms, 0848ms total)
T4C98 001:997 JLINK_WriteReg(R10, 0x00000000)  returns 0x00 (0000ms, 0848ms total)
T4C98 001:997 JLINK_WriteReg(R11, 0x00000000)  returns 0x00 (0000ms, 0848ms total)
T4C98 001:997 JLINK_WriteReg(R12, 0x00000000)  returns 0x00 (0000ms, 0848ms total)
T4C98 001:997 JLINK_WriteReg(R13 (SP), 0x20001000)  returns 0x00 (0000ms, 0848ms total)
T4C98 001:997 JLINK_WriteReg(R14, 0x20000001)  returns 0x00 (0000ms, 0848ms total)
T4C98 001:997 JLINK_WriteReg(R15 (PC), 0x200000D4)  returns 0x00 (0001ms, 0849ms total)
T4C98 001:998 JLINK_WriteReg(XPSR, 0x01000000)  returns 0x00 (0000ms, 0849ms total)
T4C98 001:998 JLINK_WriteReg(MSP, 0x20001000)  returns 0x00 (0000ms, 0849ms total)
T4C98 001:998 JLINK_WriteReg(PSP, 0x20001000)  returns 0x00 (0000ms, 0849ms total)
T4C98 001:998 JLINK_WriteReg(CFBP, 0x00000000)  returns 0x00 (0000ms, 0849ms total)
T4C98 001:998 JLINK_SetBPEx(Addr = 0x20000000, Type = 0xFFFFFFF2)  returns 0x00000005 (0000ms, 0849ms total)
T4C98 001:998 JLINK_Go() (0003ms, 0852ms total)
T4C98 002:001 JLINK_IsHalted()  returns FALSE (0001ms, 0853ms total)
T4C98 002:063 JLINK_IsHalted()  returns FALSE (0001ms, 0853ms total)
T4C98 002:066 JLINK_IsHalted()  returns FALSE (0001ms, 0853ms total)
T4C98 002:069 JLINK_IsHalted()  returns FALSE (0001ms, 0853ms total)
T4C98 002:072 JLINK_IsHalted()  returns FALSE (0001ms, 0853ms total)
T4C98 002:075 JLINK_IsHalted()  returns FALSE (0001ms, 0853ms total)
T4C98 002:078 JLINK_IsHalted()  returns FALSE (0000ms, 0852ms total)
T4C98 002:081 JLINK_IsHalted()  returns FALSE (0000ms, 0852ms total)
T4C98 002:083 JLINK_IsHalted()  returns FALSE (0001ms, 0853ms total)
T4C98 002:086 JLINK_IsHalted()  returns FALSE (0001ms, 0853ms total)
T4C98 002:089 JLINK_IsHalted()  returns FALSE (0001ms, 0853ms total)
T4C98 002:092 JLINK_IsHalted()  returns FALSE (0001ms, 0853ms total)
T4C98 002:095 JLINK_IsHalted()  returns FALSE (0001ms, 0853ms total)
T4C98 002:098 JLINK_IsHalted()  returns FALSE (0001ms, 0853ms total)
T4C98 002:101 JLINK_IsHalted()  returns FALSE (0001ms, 0853ms total)
T4C98 002:104 JLINK_IsHalted()  returns FALSE (0001ms, 0853ms total)
T4C98 002:107 JLINK_IsHalted()  returns FALSE (0001ms, 0853ms total)
T4C98 002:110 JLINK_IsHalted()  returns FALSE (0001ms, 0853ms total)
T4C98 002:113 JLINK_IsHalted()  returns FALSE (0001ms, 0853ms total)
T4C98 002:165 JLINK_IsHalted()  returns FALSE (0001ms, 0853ms total)
T4C98 002:168 JLINK_IsHalted()  returns FALSE (0001ms, 0853ms total)
T4C98 002:171 JLINK_IsHalted()  returns FALSE (0001ms, 0853ms total)
T4C98 002:174 JLINK_IsHalted()  returns FALSE (0001ms, 0853ms total)
T4C98 002:176 JLINK_IsHalted()  returns FALSE (0001ms, 0853ms total)
T4C98 002:179 JLINK_IsHalted()  returns FALSE (0001ms, 0853ms total)
T4C98 002:182 JLINK_IsHalted()  returns FALSE (0001ms, 0853ms total)
T4C98 002:185 JLINK_IsHalted()  returns FALSE (0001ms, 0853ms total)
T4C98 002:188 JLINK_IsHalted()  returns FALSE (0001ms, 0853ms total)
T4C98 002:191 JLINK_IsHalted()  returns FALSE (0001ms, 0853ms total)
T4C98 002:194 JLINK_IsHalted()  returns FALSE (0001ms, 0853ms total)
T4C98 002:197 JLINK_IsHalted()  returns FALSE (0001ms, 0853ms total)
T4C98 002:200 JLINK_IsHalted()  returns FALSE (0001ms, 0853ms total)
T4C98 002:203 JLINK_IsHalted()  returns FALSE (0001ms, 0853ms total)
T4C98 002:206 JLINK_IsHalted()  returns FALSE (0001ms, 0853ms total)
T4C98 002:209 JLINK_IsHalted()  returns FALSE (0001ms, 0853ms total)
T4C98 002:212 JLINK_IsHalted()  returns FALSE (0000ms, 0852ms total)
T4C98 002:215 JLINK_IsHalted()  returns FALSE (0001ms, 0853ms total)
T4C98 002:218 JLINK_IsHalted()  returns FALSE (0001ms, 0853ms total)
T4C98 002:327 JLINK_IsHalted()  returns FALSE (0001ms, 0853ms total)
T4C98 002:331 JLINK_IsHalted()  returns FALSE (0000ms, 0852ms total)
T4C98 002:398 JLINK_IsHalted() -- CPU_ReadMem(2 bytes @ 0x20000000)  returns TRUE (0008ms, 0860ms total)
T4C98 002:406 JLINK_ReadReg(R15 (PC))  returns 0x20000000 (0000ms, 0852ms total)
T4C98 002:406 JLINK_ClrBPEx(BPHandle = 0x00000005)  returns 0x00 (0000ms, 0852ms total)
T4C98 002:406 JLINK_ReadReg(R0)  returns 0x00000000 (0000ms, 0852ms total)
T4C98 002:408 JLINK_WriteReg(R0, 0x08008000)  returns 0x00 (0000ms, 0852ms total)
T4C98 002:408 JLINK_WriteReg(R1, 0x00004000)  returns 0x00 (0000ms, 0852ms total)
T4C98 002:408 JLINK_WriteReg(R2, 0x000000FF)  returns 0x00 (0000ms, 0852ms total)
T4C98 002:408 JLINK_WriteReg(R3, 0x00000000)  returns 0x00 (0000ms, 0852ms total)
T4C98 002:408 JLINK_WriteReg(R4, 0x00000000)  returns 0x00 (0000ms, 0852ms total)
T4C98 002:408 JLINK_WriteReg(R5, 0x00000000)  returns 0x00 (0000ms, 0852ms total)
T4C98 002:408 JLINK_WriteReg(R6, 0x00000000)  returns 0x00 (0000ms, 0852ms total)
T4C98 002:408 JLINK_WriteReg(R7, 0x00000000)  returns 0x00 (0000ms, 0852ms total)
T4C98 002:408 JLINK_WriteReg(R8, 0x00000000)  returns 0x00 (0000ms, 0852ms total)
T4C98 002:408 JLINK_WriteReg(R9, 0x20000194)  returns 0x00 (0001ms, 0853ms total)
T4C98 002:409 JLINK_WriteReg(R10, 0x00000000)  returns 0x00 (0000ms, 0853ms total)
T4C98 002:409 JLINK_WriteReg(R11, 0x00000000)  returns 0x00 (0000ms, 0853ms total)
T4C98 002:409 JLINK_WriteReg(R12, 0x00000000)  returns 0x00 (0000ms, 0853ms total)
T4C98 002:409 JLINK_WriteReg(R13 (SP), 0x20001000)  returns 0x00 (0000ms, 0853ms total)
T4C98 002:409 JLINK_WriteReg(R14, 0x20000001)  returns 0x00 (0000ms, 0853ms total)
T4C98 002:409 JLINK_WriteReg(R15 (PC), 0x20000020)  returns 0x00 (0000ms, 0853ms total)
T4C98 002:409 JLINK_WriteReg(XPSR, 0x01000000)  returns 0x00 (0000ms, 0853ms total)
T4C98 002:409 JLINK_WriteReg(MSP, 0x20001000)  returns 0x00 (0000ms, 0853ms total)
T4C98 002:409 JLINK_WriteReg(PSP, 0x20001000)  returns 0x00 (0000ms, 0853ms total)
T4C98 002:409 JLINK_WriteReg(CFBP, 0x00000000)  returns 0x00 (0000ms, 0853ms total)
T4C98 002:409 JLINK_SetBPEx(Addr = 0x20000000, Type = 0xFFFFFFF2)  returns 0x00000006 (0000ms, 0853ms total)
T4C98 002:409 JLINK_Go() (0004ms, 0857ms total)
T4C98 002:413 JLINK_IsHalted() -- CPU_ReadMem(2 bytes @ 0x20000000)  returns TRUE (0008ms, 0865ms total)
T4C98 002:421 JLINK_ReadReg(R15 (PC))  returns 0x20000000 (0000ms, 0857ms total)
T4C98 002:421 JLINK_ClrBPEx(BPHandle = 0x00000006)  returns 0x00 (0000ms, 0857ms total)
T4C98 002:421 JLINK_ReadReg(R0)  returns 0x00000001 (0001ms, 0858ms total)
T4C98 002:422 JLINK_WriteReg(R0, 0x08008000)  returns 0x00 (0000ms, 0858ms total)
T4C98 002:422 JLINK_WriteReg(R1, 0x00004000)  returns 0x00 (0000ms, 0858ms total)
T4C98 002:422 JLINK_WriteReg(R2, 0x000000FF)  returns 0x00 (0000ms, 0858ms total)
T4C98 002:422 JLINK_WriteReg(R3, 0x00000000)  returns 0x00 (0000ms, 0858ms total)
T4C98 002:422 JLINK_WriteReg(R4, 0x00000000)  returns 0x00 (0000ms, 0858ms total)
T4C98 002:422 JLINK_WriteReg(R5, 0x00000000)  returns 0x00 (0000ms, 0858ms total)
T4C98 002:422 JLINK_WriteReg(R6, 0x00000000)  returns 0x00 (0000ms, 0858ms total)
T4C98 002:422 JLINK_WriteReg(R7, 0x00000000)  returns 0x00 (0000ms, 0858ms total)
T4C98 002:422 JLINK_WriteReg(R8, 0x00000000)  returns 0x00 (0000ms, 0858ms total)
T4C98 002:422 JLINK_WriteReg(R9, 0x20000194)  returns 0x00 (0000ms, 0858ms total)
T4C98 002:422 JLINK_WriteReg(R10, 0x00000000)  returns 0x00 (0000ms, 0858ms total)
T4C98 002:422 JLINK_WriteReg(R11, 0x00000000)  returns 0x00 (0000ms, 0858ms total)
T4C98 002:423 JLINK_WriteReg(R12, 0x00000000)  returns 0x00 (0000ms, 0859ms total)
T4C98 002:423 JLINK_WriteReg(R13 (SP), 0x20001000)  returns 0x00 (0000ms, 0859ms total)
T4C98 002:423 JLINK_WriteReg(R14, 0x20000001)  returns 0x00 (0000ms, 0859ms total)
T4C98 002:423 JLINK_WriteReg(R15 (PC), 0x200000D4)  returns 0x00 (0000ms, 0859ms total)
T4C98 002:423 JLINK_WriteReg(XPSR, 0x01000000)  returns 0x00 (0000ms, 0859ms total)
T4C98 002:423 JLINK_WriteReg(MSP, 0x20001000)  returns 0x00 (0000ms, 0859ms total)
T4C98 002:423 JLINK_WriteReg(PSP, 0x20001000)  returns 0x00 (0000ms, 0859ms total)
T4C98 002:423 JLINK_WriteReg(CFBP, 0x00000000)  returns 0x00 (0000ms, 0859ms total)
T4C98 002:423 JLINK_SetBPEx(Addr = 0x20000000, Type = 0xFFFFFFF2)  returns 0x00000007 (0000ms, 0859ms total)
T4C98 002:423 JLINK_Go() (0003ms, 0862ms total)
T4C98 002:426 JLINK_IsHalted()  returns FALSE (0002ms, 0864ms total)
T4C98 002:430 JLINK_IsHalted()  returns FALSE (0001ms, 0863ms total)
T4C98 002:433 JLINK_IsHalted()  returns FALSE (0000ms, 0862ms total)
T4C98 002:435 JLINK_IsHalted()  returns FALSE (0001ms, 0863ms total)
T4C98 002:493 JLINK_IsHalted()  returns FALSE (0000ms, 0862ms total)
T4C98 002:496 JLINK_IsHalted()  returns FALSE (0001ms, 0863ms total)
T4C98 002:499 JLINK_IsHalted()  returns FALSE (0001ms, 0863ms total)
T4C98 002:506 JLINK_IsHalted()  returns FALSE (0001ms, 0863ms total)
T4C98 002:509 JLINK_IsHalted()  returns FALSE (0001ms, 0863ms total)
T4C98 002:512 JLINK_IsHalted()  returns FALSE (0001ms, 0863ms total)
T4C98 002:515 JLINK_IsHalted()  returns FALSE (0001ms, 0863ms total)
T4C98 002:518 JLINK_IsHalted()  returns FALSE (0001ms, 0863ms total)
T4C98 002:520 JLINK_IsHalted()  returns FALSE (0001ms, 0863ms total)
T4C98 002:523 JLINK_IsHalted()  returns FALSE (0001ms, 0863ms total)
T4C98 002:526 JLINK_IsHalted()  returns FALSE (0001ms, 0863ms total)
T4C98 002:529 JLINK_IsHalted()  returns FALSE (0001ms, 0863ms total)
T4C98 002:532 JLINK_IsHalted()  returns FALSE (0001ms, 0863ms total)
T4C98 002:535 JLINK_IsHalted()  returns FALSE (0001ms, 0863ms total)
T4C98 002:538 JLINK_IsHalted()  returns FALSE (0001ms, 0863ms total)
T4C98 002:541 JLINK_IsHalted()  returns FALSE (0001ms, 0863ms total)
T4C98 002:544 JLINK_IsHalted()  returns FALSE (0001ms, 0863ms total)
T4C98 002:546 JLINK_IsHalted()  returns FALSE (0001ms, 0863ms total)
T4C98 002:605 JLINK_IsHalted()  returns FALSE (0001ms, 0863ms total)
T4C98 002:608 JLINK_IsHalted()  returns FALSE (0001ms, 0863ms total)
T4C98 002:611 JLINK_IsHalted()  returns FALSE (0001ms, 0863ms total)
T4C98 002:614 JLINK_IsHalted()  returns FALSE (0001ms, 0863ms total)
T4C98 002:617 JLINK_IsHalted()  returns FALSE (0001ms, 0863ms total)
T4C98 002:620 JLINK_IsHalted()  returns FALSE (0001ms, 0863ms total)
T4C98 002:623 JLINK_IsHalted()  returns FALSE (0001ms, 0863ms total)
T4C98 002:626 JLINK_IsHalted()  returns FALSE (0000ms, 0862ms total)
T4C98 002:628 JLINK_IsHalted()  returns FALSE (0000ms, 0862ms total)
T4C98 002:631 JLINK_IsHalted()  returns FALSE (0001ms, 0863ms total)
T4C98 002:634 JLINK_IsHalted()  returns FALSE (0001ms, 0863ms total)
T4C98 002:637 JLINK_IsHalted()  returns FALSE (0001ms, 0863ms total)
T4C98 002:640 JLINK_IsHalted()  returns FALSE (0000ms, 0862ms total)
T4C98 002:643 JLINK_IsHalted()  returns FALSE (0000ms, 0862ms total)
T4C98 002:645 JLINK_IsHalted()  returns FALSE (0001ms, 0863ms total)
T4C98 002:648 JLINK_IsHalted()  returns FALSE (0001ms, 0863ms total)
T4C98 002:651 JLINK_IsHalted()  returns FALSE (0001ms, 0863ms total)
T4C98 002:654 JLINK_IsHalted()  returns FALSE (0001ms, 0863ms total)
T4C98 002:657 JLINK_IsHalted()  returns FALSE (0000ms, 0862ms total)
T4C98 002:717 JLINK_IsHalted()  returns FALSE (0001ms, 0863ms total)
T4C98 002:720 JLINK_IsHalted()  returns FALSE (0001ms, 0863ms total)
T4C98 002:723 JLINK_IsHalted()  returns FALSE (0001ms, 0863ms total)
T4C98 002:726 JLINK_IsHalted()  returns FALSE (0001ms, 0863ms total)
T4C98 002:729 JLINK_IsHalted()  returns FALSE (0001ms, 0863ms total)
T4C98 002:732 JLINK_IsHalted()  returns FALSE (0001ms, 0863ms total)
T4C98 002:735 JLINK_IsHalted()  returns FALSE (0001ms, 0863ms total)
T4C98 002:738 JLINK_IsHalted()  returns FALSE (0001ms, 0863ms total)
T4C98 002:741 JLINK_IsHalted()  returns FALSE (0001ms, 0863ms total)
T4C98 002:744 JLINK_IsHalted()  returns FALSE (0001ms, 0863ms total)
T4C98 002:747 JLINK_IsHalted()  returns FALSE (0001ms, 0863ms total)
T4C98 002:750 JLINK_IsHalted()  returns FALSE (0001ms, 0863ms total)
T4C98 002:757 JLINK_IsHalted()  returns FALSE (0001ms, 0863ms total)
T4C98 002:760 JLINK_IsHalted()  returns FALSE (0001ms, 0863ms total)
T4C98 002:763 JLINK_IsHalted()  returns FALSE (0001ms, 0863ms total)
T4C98 002:828 JLINK_IsHalted() -- CPU_ReadMem(2 bytes @ 0x20000000)  returns TRUE (0007ms, 0869ms total)
T4C98 002:835 JLINK_ReadReg(R15 (PC))  returns 0x20000000 (0000ms, 0862ms total)
T4C98 002:835 JLINK_ClrBPEx(BPHandle = 0x00000007)  returns 0x00 (0000ms, 0862ms total)
T4C98 002:836 JLINK_ReadReg(R0)  returns 0x00000000 (0000ms, 0863ms total)
T4C98 002:836 JLINK_WriteReg(R0, 0x00000001)  returns 0x00 (0000ms, 0863ms total)
T4C98 002:836 JLINK_WriteReg(R1, 0x00004000)  returns 0x00 (0000ms, 0863ms total)
T4C98 002:836 JLINK_WriteReg(R2, 0x000000FF)  returns 0x00 (0000ms, 0863ms total)
T4C98 002:836 JLINK_WriteReg(R3, 0x00000000)  returns 0x00 (0000ms, 0863ms total)
T4C98 002:836 JLINK_WriteReg(R4, 0x00000000)  returns 0x00 (0000ms, 0863ms total)
T4C98 002:836 JLINK_WriteReg(R5, 0x00000000)  returns 0x00 (0000ms, 0863ms total)
T4C98 002:836 JLINK_WriteReg(R6, 0x00000000)  returns 0x00 (0000ms, 0863ms total)
T4C98 002:836 JLINK_WriteReg(R7, 0x00000000)  returns 0x00 (0000ms, 0863ms total)
T4C98 002:836 JLINK_WriteReg(R8, 0x00000000)  returns 0x00 (0000ms, 0863ms total)
T4C98 002:836 JLINK_WriteReg(R9, 0x20000194)  returns 0x00 (0000ms, 0863ms total)
T4C98 002:837 JLINK_WriteReg(R10, 0x00000000)  returns 0x00 (0000ms, 0863ms total)
T4C98 002:837 JLINK_WriteReg(R11, 0x00000000)  returns 0x00 (0000ms, 0863ms total)
T4C98 002:837 JLINK_WriteReg(R12, 0x00000000)  returns 0x00 (0001ms, 0864ms total)
T4C98 002:838 JLINK_WriteReg(R13 (SP), 0x20001000)  returns 0x00 (0000ms, 0864ms total)
T4C98 002:838 JLINK_WriteReg(R14, 0x20000001)  returns 0x00 (0000ms, 0864ms total)
T4C98 002:838 JLINK_WriteReg(R15 (PC), 0x2000008C)  returns 0x00 (0000ms, 0864ms total)
T4C98 002:838 JLINK_WriteReg(XPSR, 0x01000000)  returns 0x00 (0000ms, 0864ms total)
T4C98 002:838 JLINK_WriteReg(MSP, 0x20001000)  returns 0x00 (0000ms, 0864ms total)
T4C98 002:838 JLINK_WriteReg(PSP, 0x20001000)  returns 0x00 (0000ms, 0864ms total)
T4C98 002:838 JLINK_WriteReg(CFBP, 0x00000000)  returns 0x00 (0000ms, 0864ms total)
T4C98 002:838 JLINK_SetBPEx(Addr = 0x20000000, Type = 0xFFFFFFF2)  returns 0x00000008 (0000ms, 0864ms total)
T4C98 002:838 JLINK_Go() (0004ms, 0868ms total)
T4C98 002:842 JLINK_IsHalted() -- CPU_ReadMem(2 bytes @ 0x20000000)  returns TRUE (0007ms, 0875ms total)
T4C98 002:849 JLINK_ReadReg(R15 (PC))  returns 0x20000000 (0000ms, 0868ms total)
T4C98 002:849 JLINK_ClrBPEx(BPHandle = 0x00000008)  returns 0x00 (0000ms, 0868ms total)
T4C98 002:849 JLINK_ReadReg(R0)  returns 0x00000000 (0000ms, 0868ms total)
T4C98 002:933 JLINK_WriteMem(0x20000000, 0x0198 Bytes, ...) - Data: 00 BE 0A E0 0D 78 2D 06 68 40 08 24 40 00 00 D3 ... -- CPU_WriteMem(408 bytes @ 0x20000000)  returns 0x198 (0007ms, 0875ms total)
T4C98 002:940 JLINK_WriteReg(R0, 0x08000000)  returns 0x00 (0000ms, 0875ms total)
T4C98 002:940 JLINK_WriteReg(R1, 0x00B71B00)  returns 0x00 (0000ms, 0875ms total)
T4C98 002:940 JLINK_WriteReg(R2, 0x00000002)  returns 0x00 (0000ms, 0875ms total)
T4C98 002:940 JLINK_WriteReg(R3, 0x00000000)  returns 0x00 (0000ms, 0875ms total)
T4C98 002:940 JLINK_WriteReg(R4, 0x00000000)  returns 0x00 (0000ms, 0875ms total)
T4C98 002:940 JLINK_WriteReg(R5, 0x00000000)  returns 0x00 (0000ms, 0875ms total)
T4C98 002:940 JLINK_WriteReg(R6, 0x00000000)  returns 0x00 (0000ms, 0875ms total)
T4C98 002:940 JLINK_WriteReg(R7, 0x00000000)  returns 0x00 (0000ms, 0875ms total)
T4C98 002:940 JLINK_WriteReg(R8, 0x00000000)  returns 0x00 (0000ms, 0875ms total)
T4C98 002:940 JLINK_WriteReg(R9, 0x20000194)  returns 0x00 (0000ms, 0875ms total)
T4C98 002:940 JLINK_WriteReg(R10, 0x00000000)  returns 0x00 (0000ms, 0875ms total)
T4C98 002:940 JLINK_WriteReg(R11, 0x00000000)  returns 0x00 (0000ms, 0875ms total)
T4C98 002:940 JLINK_WriteReg(R12, 0x00000000)  returns 0x00 (0000ms, 0875ms total)
T4C98 002:940 JLINK_WriteReg(R13 (SP), 0x20001000)  returns 0x00 (0001ms, 0876ms total)
T4C98 002:941 JLINK_WriteReg(R14, 0x20000001)  returns 0x00 (0000ms, 0876ms total)
T4C98 002:941 JLINK_WriteReg(R15 (PC), 0x2000005E)  returns 0x00 (0000ms, 0876ms total)
T4C98 002:941 JLINK_WriteReg(XPSR, 0x01000000)  returns 0x00 (0000ms, 0876ms total)
T4C98 002:941 JLINK_WriteReg(MSP, 0x20001000)  returns 0x00 (0000ms, 0876ms total)
T4C98 002:941 JLINK_WriteReg(PSP, 0x20001000)  returns 0x00 (0000ms, 0876ms total)
T4C98 002:941 JLINK_WriteReg(CFBP, 0x00000000)  returns 0x00 (0000ms, 0876ms total)
T4C98 002:941 JLINK_SetBPEx(Addr = 0x20000000, Type = 0xFFFFFFF2) -- CPU_ReadMem(2 bytes @ 0x20000000)  returns 0x00000009 (0001ms, 0877ms total)
T4C98 002:943 JLINK_Go() -- CPU_WriteMem(2 bytes @ 0x20000000) (0004ms, 0882ms total)
T4C98 002:947 JLINK_IsHalted() -- CPU_ReadMem(2 bytes @ 0x20000000)  returns TRUE (0007ms, 0889ms total)
T4C98 002:954 JLINK_ReadReg(R15 (PC))  returns 0x20000000 (0000ms, 0882ms total)
T4C98 002:954 JLINK_ClrBPEx(BPHandle = 0x00000009)  returns 0x00 (0000ms, 0882ms total)
T4C98 002:954 JLINK_ReadReg(R0)  returns 0x00000000 (0000ms, 0882ms total)
T4C98 002:956 JLINK_WriteMem(0x20000198, 0x0400 Bytes, ...) - Data: 28 12 00 20 59 87 00 08 E9 83 00 08 EB 83 00 08 ... -- CPU_WriteMem(1024 bytes @ 0x20000198)  returns 0x400 (0014ms, 0896ms total)
T4C98 002:970 JLINK_WriteReg(R0, 0x08000000)  returns 0x00 (0000ms, 0896ms total)
T4C98 002:970 JLINK_WriteReg(R1, 0x00000400)  returns 0x00 (0000ms, 0896ms total)
T4C98 002:970 JLINK_WriteReg(R2, 0x20000198)  returns 0x00 (0000ms, 0896ms total)
T4C98 002:970 JLINK_WriteReg(R3, 0x00000000)  returns 0x00 (0000ms, 0896ms total)
T4C98 002:970 JLINK_WriteReg(R4, 0x00000000)  returns 0x00 (0000ms, 0896ms total)
T4C98 002:971 JLINK_WriteReg(R5, 0x00000000)  returns 0x00 (0000ms, 0896ms total)
T4C98 002:971 JLINK_WriteReg(R6, 0x00000000)  returns 0x00 (0000ms, 0896ms total)
T4C98 002:971 JLINK_WriteReg(R7, 0x00000000)  returns 0x00 (0000ms, 0896ms total)
T4C98 002:971 JLINK_WriteReg(R8, 0x00000000)  returns 0x00 (0000ms, 0896ms total)
T4C98 002:971 JLINK_WriteReg(R9, 0x20000194)  returns 0x00 (0000ms, 0896ms total)
T4C98 002:971 JLINK_WriteReg(R10, 0x00000000)  returns 0x00 (0000ms, 0896ms total)
T4C98 002:971 JLINK_WriteReg(R11, 0x00000000)  returns 0x00 (0000ms, 0896ms total)
T4C98 002:971 JLINK_WriteReg(R12, 0x00000000)  returns 0x00 (0000ms, 0896ms total)
T4C98 002:971 JLINK_WriteReg(R13 (SP), 0x20001000)  returns 0x00 (0000ms, 0896ms total)
T4C98 002:971 JLINK_WriteReg(R14, 0x20000001)  returns 0x00 (0000ms, 0896ms total)
T4C98 002:971 JLINK_WriteReg(R15 (PC), 0x20000120)  returns 0x00 (0000ms, 0896ms total)
T4C98 002:971 JLINK_WriteReg(XPSR, 0x01000000)  returns 0x00 (0000ms, 0896ms total)
T4C98 002:971 JLINK_WriteReg(MSP, 0x20001000)  returns 0x00 (0000ms, 0896ms total)
T4C98 002:971 JLINK_WriteReg(PSP, 0x20001000)  returns 0x00 (0001ms, 0897ms total)
T4C98 002:972 JLINK_WriteReg(CFBP, 0x00000000)  returns 0x00 (0000ms, 0897ms total)
T4C98 002:972 JLINK_SetBPEx(Addr = 0x20000000, Type = 0xFFFFFFF2)  returns 0x0000000A (0000ms, 0897ms total)
T4C98 002:972 JLINK_Go() (0004ms, 0901ms total)
T4C98 002:976 JLINK_IsHalted()  returns FALSE (0000ms, 0901ms total)
T4C98 003:052 JLINK_IsHalted() -- CPU_ReadMem(2 bytes @ 0x20000000)  returns TRUE (0008ms, 0909ms total)
T4C98 003:060 JLINK_ReadReg(R15 (PC))  returns 0x20000000 (0000ms, 0901ms total)
T4C98 003:060 JLINK_ClrBPEx(BPHandle = 0x0000000A)  returns 0x00 (0000ms, 0901ms total)
T4C98 003:060 JLINK_ReadReg(R0)  returns 0x00000000 (0000ms, 0901ms total)
T4C98 003:062 JLINK_WriteMem(0x20000198, 0x0400 Bytes, ...) - Data: 63 49 88 80 08 46 41 6A 88 47 10 BD 10 B5 66 48 ... -- CPU_WriteMem(1024 bytes @ 0x20000198)  returns 0x400 (0014ms, 0915ms total)
T4C98 003:076 JLINK_WriteReg(R0, 0x08000400)  returns 0x00 (0000ms, 0915ms total)
T4C98 003:076 JLINK_WriteReg(R1, 0x00000400)  returns 0x00 (0000ms, 0915ms total)
T4C98 003:076 JLINK_WriteReg(R2, 0x20000198)  returns 0x00 (0000ms, 0915ms total)
T4C98 003:076 JLINK_WriteReg(R3, 0x00000000)  returns 0x00 (0000ms, 0915ms total)
T4C98 003:076 JLINK_WriteReg(R4, 0x00000000)  returns 0x00 (0000ms, 0915ms total)
T4C98 003:076 JLINK_WriteReg(R5, 0x00000000)  returns 0x00 (0000ms, 0915ms total)
T4C98 003:076 JLINK_WriteReg(R6, 0x00000000)  returns 0x00 (0000ms, 0915ms total)
T4C98 003:076 JLINK_WriteReg(R7, 0x00000000)  returns 0x00 (0000ms, 0915ms total)
T4C98 003:076 JLINK_WriteReg(R8, 0x00000000)  returns 0x00 (0000ms, 0915ms total)
T4C98 003:076 JLINK_WriteReg(R9, 0x20000194)  returns 0x00 (0001ms, 0916ms total)
T4C98 003:077 JLINK_WriteReg(R10, 0x00000000)  returns 0x00 (0000ms, 0916ms total)
T4C98 003:077 JLINK_WriteReg(R11, 0x00000000)  returns 0x00 (0000ms, 0916ms total)
T4C98 003:077 JLINK_WriteReg(R12, 0x00000000)  returns 0x00 (0000ms, 0916ms total)
T4C98 003:077 JLINK_WriteReg(R13 (SP), 0x20001000)  returns 0x00 (0000ms, 0916ms total)
T4C98 003:077 JLINK_WriteReg(R14, 0x20000001)  returns 0x00 (0000ms, 0916ms total)
T4C98 003:077 JLINK_WriteReg(R15 (PC), 0x20000120)  returns 0x00 (0000ms, 0916ms total)
T4C98 003:077 JLINK_WriteReg(XPSR, 0x01000000)  returns 0x00 (0000ms, 0916ms total)
T4C98 003:077 JLINK_WriteReg(MSP, 0x20001000)  returns 0x00 (0000ms, 0916ms total)
T4C98 003:077 JLINK_WriteReg(PSP, 0x20001000)  returns 0x00 (0000ms, 0916ms total)
T4C98 003:077 JLINK_WriteReg(CFBP, 0x00000000)  returns 0x00 (0000ms, 0916ms total)
T4C98 003:077 JLINK_SetBPEx(Addr = 0x20000000, Type = 0xFFFFFFF2)  returns 0x0000000B (0000ms, 0916ms total)
T4C98 003:077 JLINK_Go() (0004ms, 0920ms total)
T4C98 003:081 JLINK_IsHalted()  returns FALSE (0001ms, 0921ms total)
T4C98 003:087 JLINK_IsHalted() -- CPU_ReadMem(2 bytes @ 0x20000000)  returns TRUE (0008ms, 0928ms total)
T4C98 003:095 JLINK_ReadReg(R15 (PC))  returns 0x20000000 (0000ms, 0920ms total)
T4C98 003:095 JLINK_ClrBPEx(BPHandle = 0x0000000B)  returns 0x00 (0000ms, 0920ms total)
T4C98 003:095 JLINK_ReadReg(R0)  returns 0x00000000 (0000ms, 0920ms total)
T4C98 003:099 JLINK_WriteMem(0x20000198, 0x0400 Bytes, ...) - Data: 75 0A B4 EE E0 0A F1 EE 10 FA 07 D8 94 ED 23 0A ... -- CPU_WriteMem(1024 bytes @ 0x20000198)  returns 0x400 (0015ms, 0935ms total)
T4C98 003:114 JLINK_WriteReg(R0, 0x08000800)  returns 0x00 (0000ms, 0935ms total)
T4C98 003:114 JLINK_WriteReg(R1, 0x00000400)  returns 0x00 (0000ms, 0935ms total)
T4C98 003:114 JLINK_WriteReg(R2, 0x20000198)  returns 0x00 (0000ms, 0935ms total)
T4C98 003:114 JLINK_WriteReg(R3, 0x00000000)  returns 0x00 (0000ms, 0935ms total)
T4C98 003:114 JLINK_WriteReg(R4, 0x00000000)  returns 0x00 (0000ms, 0935ms total)
T4C98 003:114 JLINK_WriteReg(R5, 0x00000000)  returns 0x00 (0000ms, 0935ms total)
T4C98 003:114 JLINK_WriteReg(R6, 0x00000000)  returns 0x00 (0000ms, 0935ms total)
T4C98 003:115 JLINK_WriteReg(R7, 0x00000000)  returns 0x00 (0000ms, 0935ms total)
T4C98 003:115 JLINK_WriteReg(R8, 0x00000000)  returns 0x00 (0000ms, 0935ms total)
T4C98 003:115 JLINK_WriteReg(R9, 0x20000194)  returns 0x00 (0000ms, 0935ms total)
T4C98 003:115 JLINK_WriteReg(R10, 0x00000000)  returns 0x00 (0000ms, 0935ms total)
T4C98 003:115 JLINK_WriteReg(R11, 0x00000000)  returns 0x00 (0000ms, 0935ms total)
T4C98 003:115 JLINK_WriteReg(R12, 0x00000000)  returns 0x00 (0000ms, 0935ms total)
T4C98 003:115 JLINK_WriteReg(R13 (SP), 0x20001000)  returns 0x00 (0000ms, 0935ms total)
T4C98 003:115 JLINK_WriteReg(R14, 0x20000001)  returns 0x00 (0000ms, 0935ms total)
T4C98 003:115 JLINK_WriteReg(R15 (PC), 0x20000120)  returns 0x00 (0000ms, 0935ms total)
T4C98 003:115 JLINK_WriteReg(XPSR, 0x01000000)  returns 0x00 (0000ms, 0935ms total)
T4C98 003:115 JLINK_WriteReg(MSP, 0x20001000)  returns 0x00 (0000ms, 0935ms total)
T4C98 003:115 JLINK_WriteReg(PSP, 0x20001000)  returns 0x00 (0001ms, 0936ms total)
T4C98 003:116 JLINK_WriteReg(CFBP, 0x00000000)  returns 0x00 (0000ms, 0936ms total)
T4C98 003:116 JLINK_SetBPEx(Addr = 0x20000000, Type = 0xFFFFFFF2)  returns 0x0000000C (0000ms, 0936ms total)
T4C98 003:116 JLINK_Go() (0004ms, 0940ms total)
T4C98 003:120 JLINK_IsHalted()  returns FALSE (0001ms, 0941ms total)
T4C98 003:173 JLINK_IsHalted() -- CPU_ReadMem(2 bytes @ 0x20000000)  returns TRUE (0007ms, 0947ms total)
T4C98 003:180 JLINK_ReadReg(R15 (PC))  returns 0x20000000 (0000ms, 0940ms total)
T4C98 003:180 JLINK_ClrBPEx(BPHandle = 0x0000000C)  returns 0x00 (0000ms, 0940ms total)
T4C98 003:180 JLINK_ReadReg(R0)  returns 0x00000000 (0000ms, 0940ms total)
T4C98 003:182 JLINK_WriteMem(0x20000198, 0x0400 Bytes, ...) - Data: 00 F0 0B FE 41 F2 7C 50 00 F0 6D FE 6B 48 C1 68 ... -- CPU_WriteMem(1024 bytes @ 0x20000198)  returns 0x400 (0015ms, 0955ms total)
T4C98 003:197 JLINK_WriteReg(R0, 0x08000C00)  returns 0x00 (0000ms, 0955ms total)
T4C98 003:197 JLINK_WriteReg(R1, 0x00000400)  returns 0x00 (0000ms, 0955ms total)
T4C98 003:197 JLINK_WriteReg(R2, 0x20000198)  returns 0x00 (0000ms, 0955ms total)
T4C98 003:197 JLINK_WriteReg(R3, 0x00000000)  returns 0x00 (0000ms, 0955ms total)
T4C98 003:197 JLINK_WriteReg(R4, 0x00000000)  returns 0x00 (0000ms, 0955ms total)
T4C98 003:197 JLINK_WriteReg(R5, 0x00000000)  returns 0x00 (0000ms, 0955ms total)
T4C98 003:197 JLINK_WriteReg(R6, 0x00000000)  returns 0x00 (0000ms, 0955ms total)
T4C98 003:197 JLINK_WriteReg(R7, 0x00000000)  returns 0x00 (0000ms, 0955ms total)
T4C98 003:197 JLINK_WriteReg(R8, 0x00000000)  returns 0x00 (0000ms, 0955ms total)
T4C98 003:197 JLINK_WriteReg(R9, 0x20000194)  returns 0x00 (0000ms, 0955ms total)
T4C98 003:197 JLINK_WriteReg(R10, 0x00000000)  returns 0x00 (0000ms, 0955ms total)
T4C98 003:197 JLINK_WriteReg(R11, 0x00000000)  returns 0x00 (0000ms, 0955ms total)
T4C98 003:197 JLINK_WriteReg(R12, 0x00000000)  returns 0x00 (0000ms, 0955ms total)
T4C98 003:197 JLINK_WriteReg(R13 (SP), 0x20001000)  returns 0x00 (0000ms, 0955ms total)
T4C98 003:197 JLINK_WriteReg(R14, 0x20000001)  returns 0x00 (0000ms, 0955ms total)
T4C98 003:197 JLINK_WriteReg(R15 (PC), 0x20000120)  returns 0x00 (0000ms, 0955ms total)
T4C98 003:197 JLINK_WriteReg(XPSR, 0x01000000)  returns 0x00 (0000ms, 0955ms total)
T4C98 003:197 JLINK_WriteReg(MSP, 0x20001000)  returns 0x00 (0000ms, 0955ms total)
T4C98 003:197 JLINK_WriteReg(PSP, 0x20001000)  returns 0x00 (0000ms, 0955ms total)
T4C98 003:197 JLINK_WriteReg(CFBP, 0x00000000)  returns 0x00 (0000ms, 0955ms total)
T4C98 003:198 JLINK_SetBPEx(Addr = 0x20000000, Type = 0xFFFFFFF2)  returns 0x0000000D (0000ms, 0956ms total)
T4C98 003:198 JLINK_Go() (0003ms, 0959ms total)
T4C98 003:201 JLINK_IsHalted()  returns FALSE (0002ms, 0961ms total)
T4C98 003:268 JLINK_IsHalted() -- CPU_ReadMem(2 bytes @ 0x20000000)  returns TRUE (0007ms, 0966ms total)
T4C98 003:275 JLINK_ReadReg(R15 (PC))  returns 0x20000000 (0000ms, 0959ms total)
T4C98 003:275 JLINK_ClrBPEx(BPHandle = 0x0000000D)  returns 0x00 (0000ms, 0959ms total)
T4C98 003:275 JLINK_ReadReg(R0)  returns 0x00000000 (0000ms, 0959ms total)
T4C98 003:278 JLINK_WriteMem(0x20000198, 0x0400 Bytes, ...) - Data: 85 48 00 88 00 B2 FF F7 20 FF 20 64 68 E0 66 E0 ... -- CPU_WriteMem(1024 bytes @ 0x20000198)  returns 0x400 (0014ms, 0973ms total)
T4C98 003:292 JLINK_WriteReg(R0, 0x08001000)  returns 0x00 (0000ms, 0973ms total)
T4C98 003:292 JLINK_WriteReg(R1, 0x00000400)  returns 0x00 (0000ms, 0973ms total)
T4C98 003:293 JLINK_WriteReg(R2, 0x20000198)  returns 0x00 (0000ms, 0974ms total)
T4C98 003:293 JLINK_WriteReg(R3, 0x00000000)  returns 0x00 (0000ms, 0974ms total)
T4C98 003:293 JLINK_WriteReg(R4, 0x00000000)  returns 0x00 (0000ms, 0974ms total)
T4C98 003:293 JLINK_WriteReg(R5, 0x00000000)  returns 0x00 (0000ms, 0974ms total)
T4C98 003:293 JLINK_WriteReg(R6, 0x00000000)  returns 0x00 (0000ms, 0974ms total)
T4C98 003:293 JLINK_WriteReg(R7, 0x00000000)  returns 0x00 (0000ms, 0974ms total)
T4C98 003:293 JLINK_WriteReg(R8, 0x00000000)  returns 0x00 (0000ms, 0974ms total)
T4C98 003:293 JLINK_WriteReg(R9, 0x20000194)  returns 0x00 (0000ms, 0974ms total)
T4C98 003:293 JLINK_WriteReg(R10, 0x00000000)  returns 0x00 (0000ms, 0974ms total)
T4C98 003:293 JLINK_WriteReg(R11, 0x00000000)  returns 0x00 (0000ms, 0974ms total)
T4C98 003:293 JLINK_WriteReg(R12, 0x00000000)  returns 0x00 (0000ms, 0974ms total)
T4C98 003:293 JLINK_WriteReg(R13 (SP), 0x20001000)  returns 0x00 (0000ms, 0974ms total)
T4C98 003:293 JLINK_WriteReg(R14, 0x20000001)  returns 0x00 (0000ms, 0974ms total)
T4C98 003:293 JLINK_WriteReg(R15 (PC), 0x20000120)  returns 0x00 (0000ms, 0974ms total)
T4C98 003:293 JLINK_WriteReg(XPSR, 0x01000000)  returns 0x00 (0000ms, 0974ms total)
T4C98 003:293 JLINK_WriteReg(MSP, 0x20001000)  returns 0x00 (0000ms, 0974ms total)
T4C98 003:293 JLINK_WriteReg(PSP, 0x20001000)  returns 0x00 (0000ms, 0974ms total)
T4C98 003:293 JLINK_WriteReg(CFBP, 0x00000000)  returns 0x00 (0000ms, 0974ms total)
T4C98 003:293 JLINK_SetBPEx(Addr = 0x20000000, Type = 0xFFFFFFF2)  returns 0x0000000E (0001ms, 0975ms total)
T4C98 003:294 JLINK_Go() (0003ms, 0978ms total)
T4C98 003:297 JLINK_IsHalted()  returns FALSE (0001ms, 0979ms total)
T4C98 003:307 JLINK_IsHalted() -- CPU_ReadMem(2 bytes @ 0x20000000)  returns TRUE (0008ms, 0986ms total)
T4C98 003:315 JLINK_ReadReg(R15 (PC))  returns 0x20000000 (0000ms, 0978ms total)
T4C98 003:315 JLINK_ClrBPEx(BPHandle = 0x0000000E)  returns 0x00 (0000ms, 0978ms total)
T4C98 003:315 JLINK_ReadReg(R0)  returns 0x00000000 (0000ms, 0978ms total)
T4C98 003:317 JLINK_WriteMem(0x20000198, 0x0400 Bytes, ...) - Data: 11 EE 10 0A 07 B2 F0 19 06 B2 B4 F9 04 20 51 42 ... -- CPU_WriteMem(1024 bytes @ 0x20000198)  returns 0x400 (0014ms, 0992ms total)
T4C98 003:331 JLINK_WriteReg(R0, 0x08001400)  returns 0x00 (0001ms, 0993ms total)
T4C98 003:332 JLINK_WriteReg(R1, 0x00000400)  returns 0x00 (0000ms, 0993ms total)
T4C98 003:332 JLINK_WriteReg(R2, 0x20000198)  returns 0x00 (0000ms, 0993ms total)
T4C98 003:332 JLINK_WriteReg(R3, 0x00000000)  returns 0x00 (0000ms, 0993ms total)
